T9B48 1328:430.835   SEGGER J-Link V7.86c Log File
T9B48 1328:430.897   DLL Compiled: Mar  9 2023 16:16:05
T9B48 1328:430.902   Logging started @ 2026-03-11 11:56
T9B48 1328:430.905 - 107245.614ms
T9B48 1328:430.914 JLINK_SetWarnOutHandler(...)
T9B48 1328:430.918 - 0.005ms
T9B48 1328:430.923 JLINK_OpenEx(...)
T9B48 1328:432.577   Firmware: J-Link V9 compiled May  7 2021 16:26:12
T9B48 1328:433.254   Firmware: J-Link V9 compiled May  7 2021 16:26:12
T9B48 1328:433.360   Decompressing FW timestamp took 85 us
T9B48 1328:442.066   Hardware: V9.60
T9B48 1328:442.081   S/N: 69651280
T9B48 1328:442.087   OEM: SEGGER
T9B48 1328:442.092   Feature(s): RDI, GDB, FlashDL, FlashBP, JFlash
T9B48 1328:444.672   TELNET listener socket opened on port 19021
T9B48 1328:449.929   Device "CORTEX-M0+" selected.
T9B48 1328:450.471   WEBSRV WEBSRV_Init(): Starting webserver thread(s)
T9B48 1328:450.641   WEBSRV Webserver running on local port 19080
T9B48 1328:458.698 - 27.790ms returns "O.K."
T9B48 1328:459.551 JLINK_GetEmuCaps()
T9B48 1328:459.564 - 0.015ms returns 0xB9FF7BBF
T9B48 1328:459.573 JLINK_TIF_GetAvailable(...)
T9B48 1328:459.929 - 0.358ms
T9B48 1328:459.936 JLINK_SetErrorOutHandler(...)
T9B48 1328:459.940 - 0.005ms
T9B48 1328:459.950 JLINK_ExecCommand("ProjectFile = "C:\Project\PUYA\Firmware\PY32T020\PY32T020_Touch\Project\MDK-ARM\JLinkSettings.ini"", ...). 
T9B48 1328:462.435   Device "CORTEX-M0+" selected.
T9B48 1328:466.149 - 6.207ms returns 0x00
T9B48 1328:467.927 JLINK_ExecCommand("Device = PY32T020x6", ...). 
T9B48 1328:468.157   Flash bank @ 0x08000000: SFL: Parsing sectorization info from ELF file
T9B48 1328:468.165     FlashDevice.SectorInfo[0]: .SectorSize = 0x00001000, .SectorStartAddr = 0x00000000
T9B48 1328:468.170   OFL: Init() present @ offset 0x00000063
T9B48 1328:468.175   OFL: UnInit() present @ offset 0x00000099
T9B48 1328:468.182   OFL: EraseSector() present @ offset 0x000000FB
T9B48 1328:468.187   OFL: ProgramPage() present @ offset 0x00000141
T9B48 1328:468.192   OFL: EraseChip() present @ offset 0x000000A7
T9B48 1328:468.197   OFL: BlankCheck() present @ offset 0x0000013D
T9B48 1328:468.202   OFL: Verify() N/A
T9B48 1328:468.207   OFL: SEGGER_FL_Erase() N/A
T9B48 1328:468.212   OFL: SEGGER_OPEN_Erase() N/A
T9B48 1328:468.217   OFL: SEGGER_FL_Program() N/A
T9B48 1328:468.222   OFL: SEGGER_OPEN_Program() N/A
T9B48 1328:468.227   OFL: SEGGER_FL_Read() N/A
T9B48 1328:468.232   OFL: SEGGER_OPEN_Read() N/A
T9B48 1328:468.237   OFL: SEGGER_FL_CalcCRC() N/A
T9B48 1328:468.242   OFL: SEGGER_OPEN_CalcCRC() N/A
T9B48 1328:468.247   OFL: SEGGER_FL_Start() N/A
T9B48 1328:468.252   OFL: SEGGER_OPEN_Start() N/A
T9B48 1328:468.257   OFL: SEGGER_FL_GetFlashInfo() N/A
T9B48 1328:468.262   OFL: SEGGER_OPEN_GetFlashInfo() N/A
T9B48 1328:468.266   OFL: SEGGER_FL_Verify() N/A
T9B48 1328:468.271   OFL: SEGGER_FL_CheckBlank() N/A
T9B48 1328:468.276   OFL: SEGGER_FL_Prepare() N/A
T9B48 1328:468.281   OFL: SEGGER_FL_Restore() N/A
T9B48 1328:468.286   OFL: SEGGER_FL_EraseChip() N/A
T9B48 1328:468.374   Flash bank @ 0x1FFF0080: SFL: Parsing sectorization info from ELF file
T9B48 1328:468.380     FlashDevice.SectorInfo[0]: .SectorSize = 0x00000010, .SectorStartAddr = 0x00000000
T9B48 1328:468.386   OFL: Init() present @ offset 0x00000063
T9B48 1328:468.391   OFL: UnInit() present @ offset 0x000000A1
T9B48 1328:468.396   OFL: EraseSector() present @ offset 0x000000BB
T9B48 1328:468.401   OFL: ProgramPage() present @ offset 0x000000C3
T9B48 1328:468.406   OFL: EraseChip() present @ offset 0x000000B7
T9B48 1328:468.412   OFL: BlankCheck() present @ offset 0x000000BF
T9B48 1328:468.417   OFL: Verify() present @ offset 0x00000119
T9B48 1328:468.422   OFL: SEGGER_FL_Erase() N/A
T9B48 1328:468.426   OFL: SEGGER_OPEN_Erase() N/A
T9B48 1328:468.431   OFL: SEGGER_FL_Program() N/A
T9B48 1328:468.436   OFL: SEGGER_OPEN_Program() N/A
T9B48 1328:468.441   OFL: SEGGER_FL_Read() N/A
T9B48 1328:468.446   OFL: SEGGER_OPEN_Read() N/A
T9B48 1328:468.451   OFL: SEGGER_FL_CalcCRC() N/A
T9B48 1328:468.456   OFL: SEGGER_OPEN_CalcCRC() N/A
T9B48 1328:468.489   OFL: SEGGER_FL_Start() N/A
T9B48 1328:468.494   OFL: SEGGER_OPEN_Start() N/A
T9B48 1328:468.499   OFL: SEGGER_FL_GetFlashInfo() N/A
T9B48 1328:468.504   OFL: SEGGER_OPEN_GetFlashInfo() N/A
T9B48 1328:468.509   OFL: SEGGER_FL_Verify() N/A
T9B48 1328:468.514   OFL: SEGGER_FL_CheckBlank() N/A
T9B48 1328:468.519   OFL: SEGGER_FL_Prepare() N/A
T9B48 1328:468.524   OFL: SEGGER_FL_Restore() N/A
T9B48 1328:468.531   OFL: SEGGER_FL_EraseChip() N/A
T9B48 1328:468.599   Flash bank @ 0x1FFF0280: SFL: Parsing sectorization info from ELF file
T9B48 1328:468.605     FlashDevice.SectorInfo[0]: .SectorSize = 0x00000080, .SectorStartAddr = 0x00000000
T9B48 1328:468.610   OFL: Init() present @ offset 0x00000063
T9B48 1328:468.615   OFL: UnInit() present @ offset 0x00000099
T9B48 1328:468.620   OFL: EraseSector() present @ offset 0x000000F5
T9B48 1328:468.625   OFL: ProgramPage() present @ offset 0x00000105
T9B48 1328:468.630   OFL: EraseChip() present @ offset 0x000000E9
T9B48 1328:468.635   OFL: BlankCheck() present @ offset 0x00000101
T9B48 1328:468.640   OFL: Verify() N/A
T9B48 1328:468.645   OFL: SEGGER_FL_Erase() N/A
T9B48 1328:468.650   OFL: SEGGER_OPEN_Erase() N/A
T9B48 1328:468.655   OFL: SEGGER_FL_Program() N/A
T9B48 1328:468.660   OFL: SEGGER_OPEN_Program() N/A
T9B48 1328:468.665   OFL: SEGGER_FL_Read() N/A
T9B48 1328:468.670   OFL: SEGGER_OPEN_Read() N/A
T9B48 1328:468.675   OFL: SEGGER_FL_CalcCRC() N/A
T9B48 1328:468.680   OFL: SEGGER_OPEN_CalcCRC() N/A
T9B48 1328:468.685   OFL: SEGGER_FL_Start() N/A
T9B48 1328:468.690   OFL: SEGGER_OPEN_Start() N/A
T9B48 1328:468.694   OFL: SEGGER_FL_GetFlashInfo() N/A
T9B48 1328:468.699   OFL: SEGGER_OPEN_GetFlashInfo() N/A
T9B48 1328:468.704   OFL: SEGGER_FL_Verify() N/A
T9B48 1328:468.709   OFL: SEGGER_FL_CheckBlank() N/A
T9B48 1328:468.714   OFL: SEGGER_FL_Prepare() N/A
T9B48 1328:468.719   OFL: SEGGER_FL_Restore() N/A
T9B48 1328:468.724   OFL: SEGGER_FL_EraseChip() N/A
T9B48 1328:470.338   Device "PY32T020X6" selected.
T9B48 1328:471.582 - 3.649ms returns 0x00
T9B48 1328:471.597 JLINK_ExecCommand("DisableConnectionTimeout", ...). 
T9B48 1328:471.603 - 0.002ms returns 0x01
T9B48 1328:471.613 JLINK_GetHardwareVersion()
T9B48 1328:471.617 - 0.005ms returns 96000
T9B48 1328:471.622 JLINK_GetDLLVersion()
T9B48 1328:471.625 - 0.005ms returns 78603
T9B48 1328:471.630 JLINK_GetOEMString(...)
T9B48 1328:471.635 JLINK_GetFirmwareString(...)
T9B48 1328:471.638 - 0.005ms
T9B48 1328:477.840 JLINK_GetDLLVersion()
T9B48 1328:477.857 - 0.019ms returns 78603
T9B48 1328:477.867 JLINK_GetCompileDateTime()
T9B48 1328:477.870 - 0.005ms
T9B48 1328:479.317 JLINK_GetFirmwareString(...)
T9B48 1328:479.331 - 0.015ms
T9B48 1328:480.757 JLINK_GetHardwareVersion()
T9B48 1328:480.770 - 0.015ms returns 96000
T9B48 1328:482.218 JLINK_GetSN()
T9B48 1328:482.230 - 0.014ms returns 69651280
T9B48 1328:483.624 JLINK_GetOEMString(...)
T9B48 1328:486.422 JLINK_TIF_Select(JLINKARM_TIF_SWD)
T9B48 1328:487.892 - 1.475ms returns 0x00
T9B48 1328:487.903 JLINK_HasError()
T9B48 1328:487.911 JLINK_SetSpeed(5000)
T9B48 1328:488.202 - 0.315ms
T9B48 1328:488.240 JLINK_GetId()
T9B48 1328:491.160   Found SW-DP with ID 0x0BC11477
T9B48 1328:497.325   DPIDR: 0x0BC11477
T9B48 1328:499.829   CoreSight SoC-400 or earlier
T9B48 1328:501.469   Scanning AP map to find all available APs
T9B48 1328:503.878   AP[1]: Stopped AP scan as end of AP map has been reached
T9B48 1328:505.490   AP[0]: AHB-AP (IDR: 0x04770031)
T9B48 1328:507.125   Iterating through AP map to find AHB-AP to use
T9B48 1328:510.155   AP[0]: Core found
T9B48 1328:511.641   AP[0]: AHB-AP ROM base: 0xE00FF000
T9B48 1328:513.865   CPUID register: 0x410CC601. Implementer code: 0x41 (ARM)
T9B48 1328:515.285   Found Cortex-M0 r0p1, Little endian.
T9B48 1328:516.137   -- Max. mem block: 0x00010AA0
T9B48 1328:516.839   CPU_ReadMem(4 bytes @ 0xE000EDF0)
T9B48 1328:517.375   CPU_WriteMem(4 bytes @ 0xE000EDF0)
T9B48 1328:517.923   CPU_ReadMem(4 bytes @ 0xE0002000)
T9B48 1328:519.888   FPUnit: 4 code (BP) slots and 0 literal slots
T9B48 1328:519.903   CPU_ReadMem(4 bytes @ 0xE000EDFC)
T9B48 1328:520.427   CPU_WriteMem(4 bytes @ 0xE000EDFC)
T9B48 1328:520.986   CPU_ReadMem(4 bytes @ 0xE0001000)
T9B48 1328:521.491   CPU_WriteMem(4 bytes @ 0xE0001000)
T9B48 1328:523.522   CoreSight components:
T9B48 1328:525.047   ROMTbl[0] @ E00FF000
T9B48 1328:525.066   CPU_ReadMem(64 bytes @ 0xE00FF000)
T9B48 1328:526.008   CPU_ReadMem(32 bytes @ 0xE000EFE0)
T9B48 1328:528.142   [0][0]: E000E000 CID B105E00D PID 000BB008 SCS
T9B48 1328:528.156   CPU_ReadMem(32 bytes @ 0xE0001FE0)
T9B48 1328:530.348   [0][1]: E0001000 CID B105E00D PID 000BB00A DWT
T9B48 1328:530.362   CPU_ReadMem(32 bytes @ 0xE0002FE0)
T9B48 1328:532.453   [0][2]: E0002000 CID B105E00D PID 000BB00B FPB
T9B48 1328:532.973 - 44.736ms returns 0x0BC11477
T9B48 1328:533.033 JLINK_GetDLLVersion()
T9B48 1328:533.037 - 0.006ms returns 78603
T9B48 1328:533.047 JLINK_CORE_GetFound()
T9B48 1328:533.051 - 0.005ms returns 0x60000FF
T9B48 1328:533.056 JLINK_GetDebugInfo(0x100 = JLINKARM_ROM_TABLE_ADDR_INDEX)
T9B48 1328:533.060   Value=0xE00FF000
T9B48 1328:533.065 - 0.011ms returns 0
T9B48 1328:534.541 JLINK_GetDebugInfo(0x100 = JLINKARM_ROM_TABLE_ADDR_INDEX)
T9B48 1328:534.554   Value=0xE00FF000
T9B48 1328:534.559 - 0.019ms returns 0
T9B48 1328:534.564 JLINK_GetDebugInfo(0x101 = JLINKARM_DEBUG_INFO_ETM_ADDR_INDEX)
T9B48 1328:534.567   Value=0x00000000
T9B48 1328:534.572 - 0.010ms returns 0
T9B48 1328:534.580 JLINK_ReadMemEx(0xE0041FF0, 0x10 Bytes, Flags = 0x02000004)
T9B48 1328:534.592   CPU_ReadMem(16 bytes @ 0xE0041FF0)
T9B48 1328:535.198   Data:  00 00 00 00 00 00 00 00 00 00 00 00 00 00 00 00
T9B48 1328:535.204 - 0.625ms returns 16 (0x10)
T9B48 1328:535.209 JLINK_GetDebugInfo(0x102 = JLINKARM_DEBUG_INFO_MTB_ADDR_INDEX)
T9B48 1328:535.213   Value=0x00000000
T9B48 1328:535.218 - 0.010ms returns 0
T9B48 1328:535.222 JLINK_GetDebugInfo(0x103 = JLINKARM_DEBUG_INFO_TPIU_ADDR_INDEX)
T9B48 1328:535.225   Value=0x00000000
T9B48 1328:535.230 - 0.010ms returns 0
T9B48 1328:535.234 JLINK_ReadMemEx(0xE0040FF0, 0x10 Bytes, Flags = 0x02000004)
T9B48 1328:535.240   CPU_ReadMem(16 bytes @ 0xE0040FF0)
T9B48 1328:535.760   Data:  00 00 00 00 00 00 00 00 00 00 00 00 00 00 00 00
T9B48 1328:535.765 - 0.539ms returns 16 (0x10)
T9B48 1328:535.800 JLINK_GetDebugInfo(0x104 = JLINKARM_DEBUG_INFO_ITM_ADDR_INDEX)
T9B48 1328:535.804   Value=0xE0000000
T9B48 1328:535.809 - 0.010ms returns 0
T9B48 1328:535.813 JLINK_GetDebugInfo(0x105 = JLINKARM_DEBUG_INFO_DWT_ADDR_INDEX)
T9B48 1328:535.817   Value=0xE0001000
T9B48 1328:535.821 - 0.009ms returns 0
T9B48 1328:535.825 JLINK_GetDebugInfo(0x106 = JLINKARM_DEBUG_INFO_FPB_ADDR_INDEX)
T9B48 1328:535.829   Value=0xE0002000
T9B48 1328:535.834 - 0.010ms returns 0
T9B48 1328:535.838 JLINK_GetDebugInfo(0x107 = JLINKARM_DEBUG_INFO_NVIC_ADDR_INDEX)
T9B48 1328:535.841   Value=0xE000E000
T9B48 1328:535.848 - 0.013ms returns 0
T9B48 1328:535.853 JLINK_GetDebugInfo(0x10C = JLINKARM_DEBUG_INFO_DBG_ADDR_INDEX)
T9B48 1328:535.856   Value=0xE000EDF0
T9B48 1328:535.861 - 0.009ms returns 0
T9B48 1328:535.865 JLINK_GetDebugInfo(0x01 = Unknown)
T9B48 1328:535.869   Value=0x00000000
T9B48 1328:535.873 - 0.010ms returns 0
T9B48 1328:535.879 JLINK_ReadMemU32(0xE000ED00, 0x1 Items)
T9B48 1328:535.883   CPU_ReadMem(4 bytes @ 0xE000ED00)
T9B48 1328:536.494   Data:  01 C6 0C 41
T9B48 1328:536.500   Debug reg: CPUID
T9B48 1328:536.505 - 0.627ms returns 1 (0x1)
T9B48 1328:536.510 JLINK_GetDebugInfo(0x10F = JLINKARM_DEBUG_INFO_HAS_CORTEX_M_SECURITY_EXT_INDEX)
T9B48 1328:536.513   Value=0x00000000
T9B48 1328:536.518 - 0.010ms returns 0
T9B48 1328:536.523 JLINK_HasError()
T9B48 1328:536.528 JLINK_SetResetType(JLINKARM_CM3_RESET_TYPE_NORMAL)
T9B48 1328:536.532 - 0.005ms returns JLINKARM_CM3_RESET_TYPE_NORMAL
T9B48 1328:536.536 JLINK_Reset()
T9B48 1328:536.543   CPU is running
T9B48 1328:536.549   CPU_WriteMem(4 bytes @ 0xE000EDF0)
T9B48 1328:537.031   CPU is running
T9B48 1328:537.037   CPU_WriteMem(4 bytes @ 0xE000EDFC)
T9B48 1328:539.353   Reset: Halt core after reset via DEMCR.VC_CORERESET.
T9B48 1328:541.759   Reset: Reset device via AIRCR.SYSRESETREQ.
T9B48 1328:541.775   CPU is running
T9B48 1328:541.783   CPU_WriteMem(4 bytes @ 0xE000ED0C)
T9B48 1328:596.752   CPU_ReadMem(4 bytes @ 0xE000EDF0)
T9B48 1328:597.393   CPU_ReadMem(4 bytes @ 0xE000EDF0)
T9B48 1328:600.489   CPU_WriteMem(4 bytes @ 0xE000EDFC)
T9B48 1328:607.115   CPU_ReadMem(4 bytes @ 0xE000EDF0)
T9B48 1328:610.233   CPU_WriteMem(4 bytes @ 0xE0002000)
T9B48 1328:610.838   CPU_ReadMem(4 bytes @ 0xE000EDFC)
T9B48 1328:611.350   CPU_ReadMem(4 bytes @ 0xE0001000)
T9B48 1328:611.830   CPU_WriteMem(4 bytes @ 0xE0001000)
T9B48 1328:612.361 - 75.827ms
T9B48 1328:612.420 JLINK_Halt()
T9B48 1328:612.425 - 0.006ms returns 0x00
T9B48 1328:612.430 JLINK_ReadMemU32(0xE000EDF0, 0x1 Items)
T9B48 1328:612.438   CPU_ReadMem(4 bytes @ 0xE000EDF0)
T9B48 1328:612.916   Data:  03 00 03 00
T9B48 1328:612.922   Debug reg: DHCSR
T9B48 1328:612.927 - 0.499ms returns 1 (0x1)
T9B48 1328:612.934 JLINK_WriteU32_64(0xE000EDF0, 0xA05F0003)
T9B48 1328:612.938   Debug reg: DHCSR
T9B48 1328:613.127   CPU_WriteMem(4 bytes @ 0xE000EDF0)
T9B48 1328:613.704 - 0.772ms returns 0 (0x00000000)
T9B48 1328:613.710 JLINK_WriteU32_64(0xE000EDFC, 0x01000000)
T9B48 1328:613.714   Debug reg: DEMCR
T9B48 1328:613.721   CPU_WriteMem(4 bytes @ 0xE000EDFC)
T9B48 1328:614.438 - 0.730ms returns 0 (0x00000000)
T9B48 1328:620.681 JLINK_GetHWStatus(...)
T9B48 1328:621.197 - 0.547ms returns 0
T9B48 1328:625.541 JLINK_GetNumBPUnits(Type = 0xFFFFFF00)
T9B48 1328:625.558 - 0.019ms returns 0x04
T9B48 1328:625.563 JLINK_GetNumBPUnits(Type = 0xF0)
T9B48 1328:625.568 - 0.006ms returns 0x2000
T9B48 1328:625.572 JLINK_GetNumWPUnits()
T9B48 1328:625.576 - 0.005ms returns 2
T9B48 1328:629.737 JLINK_GetSpeed()
T9B48 1328:629.751 - 0.015ms returns 4000
T9B48 1328:632.450 JLINK_ReadMemU32(0xE000E004, 0x1 Items)
T9B48 1328:632.471   CPU_ReadMem(4 bytes @ 0xE000E004)
T9B48 1328:633.065   Data:  00 00 00 00
T9B48 1328:633.072 - 0.624ms returns 1 (0x1)
T9B48 1328:633.081 JLINK_Halt()
T9B48 1328:633.085 - 0.005ms returns 0x00
T9B48 1328:633.092 JLINK_IsHalted()
T9B48 1328:633.097 - 0.006ms returns TRUE
T9B48 1328:635.694 JLINK_WriteMem(0x20000000, 0x358 Bytes, ...)
T9B48 1328:635.704   Data:  00 BE 0A E0 0D 78 2D 06 68 40 08 24 40 00 00 D3 ...
T9B48 1328:635.919   CPU_WriteMem(856 bytes @ 0x20000000)
T9B48 1328:639.436 - 3.756ms returns 0x358
T9B48 1328:639.526 JLINK_HasError()
T9B48 1328:639.540 JLINK_WriteReg(R0, 0x08000000)
T9B48 1328:639.549 - 0.010ms returns 0
T9B48 1328:639.553 JLINK_WriteReg(R1, 0x00B71B00)
T9B48 1328:639.557 - 0.005ms returns 0
T9B48 1328:639.561 JLINK_WriteReg(R2, 0x00000001)
T9B48 1328:639.565 - 0.006ms returns 0
T9B48 1328:639.570 JLINK_WriteReg(R3, 0x00000000)
T9B48 1328:639.574 - 0.006ms returns 0
T9B48 1328:639.578 JLINK_WriteReg(R4, 0x00000000)
T9B48 1328:639.582 - 0.005ms returns 0
T9B48 1328:639.586 JLINK_WriteReg(R5, 0x00000000)
T9B48 1328:639.590 - 0.007ms returns 0
T9B48 1328:639.596 JLINK_WriteReg(R6, 0x00000000)
T9B48 1328:639.600 - 0.005ms returns 0
T9B48 1328:639.604 JLINK_WriteReg(R7, 0x00000000)
T9B48 1328:639.608 - 0.005ms returns 0
T9B48 1328:639.612 JLINK_WriteReg(R8, 0x00000000)
T9B48 1328:639.616 - 0.006ms returns 0
T9B48 1328:639.621 JLINK_WriteReg(R9, 0x2000034C)
T9B48 1328:639.624 - 0.005ms returns 0
T9B48 1328:639.628 JLINK_WriteReg(R10, 0x00000000)
T9B48 1328:639.632 - 0.005ms returns 0
T9B48 1328:639.636 JLINK_WriteReg(R11, 0x00000000)
T9B48 1328:639.640 - 0.005ms returns 0
T9B48 1328:639.644 JLINK_WriteReg(R12, 0x00000000)
T9B48 1328:639.648 - 0.005ms returns 0
T9B48 1328:639.652 JLINK_WriteReg(R13 (SP), 0x20001000)
T9B48 1328:639.658 - 0.007ms returns 0
T9B48 1328:639.662 JLINK_WriteReg(R14, 0x20000001)
T9B48 1328:639.666 - 0.005ms returns 0
T9B48 1328:639.670 JLINK_WriteReg(R15 (PC), 0x200000BC)
T9B48 1328:639.674 - 0.005ms returns 0
T9B48 1328:639.678 JLINK_WriteReg(XPSR, 0x01000000)
T9B48 1328:639.738 - 0.064ms returns 0
T9B48 1328:639.745 JLINK_WriteReg(MSP, 0x20001000)
T9B48 1328:639.749 - 0.005ms returns 0
T9B48 1328:639.753 JLINK_WriteReg(PSP, 0x20001000)
T9B48 1328:639.757 - 0.005ms returns 0
T9B48 1328:639.761 JLINK_WriteReg(CFBP, 0x00000000)
T9B48 1328:639.764 - 0.005ms returns 0
T9B48 1328:639.771 JLINK_SetBPEx(Addr = 0x20000000, Type = 0xFFFFFFF2)
T9B48 1328:639.782   CPU_ReadMem(2 bytes @ 0x20000000)
T9B48 1328:640.340 - 0.571ms returns 0x00000001
T9B48 1328:640.349 JLINK_Go()
T9B48 1328:640.355   CPU_WriteMem(2 bytes @ 0x20000000)
T9B48 1328:640.859   CPU_ReadMem(4 bytes @ 0xE0001000)
T9B48 1328:641.385   CPU_WriteMem(4 bytes @ 0xE0001000)
T9B48 1328:642.033   CPU_WriteMem(4 bytes @ 0xE0002008)
T9B48 1328:642.039   CPU_WriteMem(4 bytes @ 0xE000200C)
T9B48 1328:642.045   CPU_WriteMem(4 bytes @ 0xE0002010)
T9B48 1328:642.050   CPU_WriteMem(4 bytes @ 0xE0002014)
T9B48 1328:643.126   CPU_WriteMem(4 bytes @ 0xE0001004)
T9B48 1328:646.153 - 5.820ms
T9B48 1328:646.174 JLINK_IsHalted()
T9B48 1328:648.512   CPU_ReadMem(2 bytes @ 0x20000000)
T9B48 1328:648.968 - 2.797ms returns TRUE
T9B48 1328:648.979 JLINK_ReadReg(R15 (PC))
T9B48 1328:648.983 - 0.006ms returns 0x20000000
T9B48 1328:648.988 JLINK_ClrBPEx(BPHandle = 0x00000001)
T9B48 1328:648.992 - 0.005ms returns 0x00
T9B48 1328:648.997 JLINK_ReadReg(R0)
T9B48 1328:649.001 - 0.005ms returns 0x00000000
T9B48 1328:649.261 JLINK_HasError()
T9B48 1328:649.273 JLINK_WriteReg(R0, 0x08000000)
T9B48 1328:649.277 - 0.006ms returns 0
T9B48 1328:649.281 JLINK_WriteReg(R1, 0x00001000)
T9B48 1328:649.285 - 0.005ms returns 0
T9B48 1328:649.289 JLINK_WriteReg(R2, 0x000000FF)
T9B48 1328:649.294 - 0.006ms returns 0
T9B48 1328:649.298 JLINK_WriteReg(R3, 0x00000000)
T9B48 1328:649.301 - 0.005ms returns 0
T9B48 1328:649.305 JLINK_WriteReg(R4, 0x00000000)
T9B48 1328:649.309 - 0.005ms returns 0
T9B48 1328:649.313 JLINK_WriteReg(R5, 0x00000000)
T9B48 1328:649.316 - 0.005ms returns 0
T9B48 1328:649.321 JLINK_WriteReg(R6, 0x00000000)
T9B48 1328:649.324 - 0.005ms returns 0
T9B48 1328:649.328 JLINK_WriteReg(R7, 0x00000000)
T9B48 1328:649.332 - 0.005ms returns 0
T9B48 1328:649.336 JLINK_WriteReg(R8, 0x00000000)
T9B48 1328:649.339 - 0.005ms returns 0
T9B48 1328:649.343 JLINK_WriteReg(R9, 0x2000034C)
T9B48 1328:649.347 - 0.005ms returns 0
T9B48 1328:649.351 JLINK_WriteReg(R10, 0x00000000)
T9B48 1328:649.355 - 0.005ms returns 0
T9B48 1328:649.359 JLINK_WriteReg(R11, 0x00000000)
T9B48 1328:649.362 - 0.005ms returns 0
T9B48 1328:649.366 JLINK_WriteReg(R12, 0x00000000)
T9B48 1328:649.370 - 0.005ms returns 0
T9B48 1328:649.374 JLINK_WriteReg(R13 (SP), 0x20001000)
T9B48 1328:649.378 - 0.005ms returns 0
T9B48 1328:649.382 JLINK_WriteReg(R14, 0x20000001)
T9B48 1328:649.390 - 0.010ms returns 0
T9B48 1328:649.395 JLINK_WriteReg(R15 (PC), 0x20000216)
T9B48 1328:649.401 - 0.007ms returns 0
T9B48 1328:649.406 JLINK_WriteReg(XPSR, 0x01000000)
T9B48 1328:649.409 - 0.005ms returns 0
T9B48 1328:649.413 JLINK_WriteReg(MSP, 0x20001000)
T9B48 1328:649.417 - 0.005ms returns 0
T9B48 1328:649.421 JLINK_WriteReg(PSP, 0x20001000)
T9B48 1328:649.424 - 0.005ms returns 0
T9B48 1328:649.428 JLINK_WriteReg(CFBP, 0x00000000)
T9B48 1328:649.432 - 0.005ms returns 0
T9B48 1328:649.436 JLINK_SetBPEx(Addr = 0x20000000, Type = 0xFFFFFFF2)
T9B48 1328:649.440 - 0.005ms returns 0x00000002
T9B48 1328:649.445 JLINK_Go()
T9B48 1328:649.452   CPU_ReadMem(4 bytes @ 0xE0001000)
T9B48 1328:652.390 - 2.954ms
T9B48 1328:652.403 JLINK_IsHalted()
T9B48 1328:654.841   CPU_ReadMem(2 bytes @ 0x20000000)
T9B48 1328:655.337 - 2.942ms returns TRUE
T9B48 1328:655.351 JLINK_ReadReg(R15 (PC))
T9B48 1328:655.356 - 0.007ms returns 0x20000000
T9B48 1328:655.361 JLINK_ClrBPEx(BPHandle = 0x00000002)
T9B48 1328:655.365 - 0.005ms returns 0x00
T9B48 1328:655.369 JLINK_ReadReg(R0)
T9B48 1328:655.373 - 0.005ms returns 0x00000001
T9B48 1328:655.377 JLINK_HasError()
T9B48 1328:655.382 JLINK_WriteReg(R0, 0x08000000)
T9B48 1328:655.385 - 0.005ms returns 0
T9B48 1328:655.393 JLINK_WriteReg(R1, 0x00001000)
T9B48 1328:655.401 - 0.009ms returns 0
T9B48 1328:655.405 JLINK_WriteReg(R2, 0x000000FF)
T9B48 1328:655.409 - 0.005ms returns 0
T9B48 1328:655.413 JLINK_WriteReg(R3, 0x00000000)
T9B48 1328:655.417 - 0.005ms returns 0
T9B48 1328:655.421 JLINK_WriteReg(R4, 0x00000000)
T9B48 1328:655.424 - 0.005ms returns 0
T9B48 1328:655.428 JLINK_WriteReg(R5, 0x00000000)
T9B48 1328:655.432 - 0.005ms returns 0
T9B48 1328:655.436 JLINK_WriteReg(R6, 0x00000000)
T9B48 1328:655.439 - 0.005ms returns 0
T9B48 1328:655.443 JLINK_WriteReg(R7, 0x00000000)
T9B48 1328:655.447 - 0.005ms returns 0
T9B48 1328:655.451 JLINK_WriteReg(R8, 0x00000000)
T9B48 1328:655.455 - 0.005ms returns 0
T9B48 1328:655.459 JLINK_WriteReg(R9, 0x2000034C)
T9B48 1328:655.462 - 0.005ms returns 0
T9B48 1328:655.467 JLINK_WriteReg(R10, 0x00000000)
T9B48 1328:655.470 - 0.005ms returns 0
T9B48 1328:655.475 JLINK_WriteReg(R11, 0x00000000)
T9B48 1328:655.479 - 0.005ms returns 0
T9B48 1328:655.483 JLINK_WriteReg(R12, 0x00000000)
T9B48 1328:655.486 - 0.010ms returns 0
T9B48 1328:655.495 JLINK_WriteReg(R13 (SP), 0x20001000)
T9B48 1328:655.499 - 0.005ms returns 0
T9B48 1328:655.503 JLINK_WriteReg(R14, 0x20000001)
T9B48 1328:655.507 - 0.005ms returns 0
T9B48 1328:655.511 JLINK_WriteReg(R15 (PC), 0x200001B2)
T9B48 1328:655.515 - 0.005ms returns 0
T9B48 1328:655.519 JLINK_WriteReg(XPSR, 0x01000000)
T9B48 1328:655.522 - 0.005ms returns 0
T9B48 1328:655.526 JLINK_WriteReg(MSP, 0x20001000)
T9B48 1328:655.530 - 0.005ms returns 0
T9B48 1328:655.534 JLINK_WriteReg(PSP, 0x20001000)
T9B48 1328:655.538 - 0.005ms returns 0
T9B48 1328:655.542 JLINK_WriteReg(CFBP, 0x00000000)
T9B48 1328:655.545 - 0.005ms returns 0
T9B48 1328:655.549 JLINK_SetBPEx(Addr = 0x20000000, Type = 0xFFFFFFF2)
T9B48 1328:655.553 - 0.005ms returns 0x00000003
T9B48 1328:655.558 JLINK_Go()
T9B48 1328:655.565   CPU_ReadMem(4 bytes @ 0xE0001000)
T9B48 1328:658.616 - 3.074ms
T9B48 1328:658.637 JLINK_IsHalted()
T9B48 1328:662.535 - 3.918ms returns FALSE
T9B48 1328:662.560 JLINK_HasError()
T9B48 1328:668.209 JLINK_IsHalted()
T9B48 1328:670.911   CPU_ReadMem(2 bytes @ 0x20000000)
T9B48 1328:671.515 - 3.311ms returns TRUE
T9B48 1328:671.524 JLINK_ReadReg(R15 (PC))
T9B48 1328:671.529 - 0.007ms returns 0x20000000
T9B48 1328:671.534 JLINK_ClrBPEx(BPHandle = 0x00000003)
T9B48 1328:671.538 - 0.005ms returns 0x00
T9B48 1328:671.542 JLINK_ReadReg(R0)
T9B48 1328:671.546 - 0.005ms returns 0x00000000
T9B48 1328:671.845 JLINK_HasError()
T9B48 1328:671.855 JLINK_WriteReg(R0, 0x08001000)
T9B48 1328:671.860 - 0.006ms returns 0
T9B48 1328:671.865 JLINK_WriteReg(R1, 0x00001000)
T9B48 1328:671.868 - 0.005ms returns 0
T9B48 1328:671.873 JLINK_WriteReg(R2, 0x000000FF)
T9B48 1328:671.876 - 0.005ms returns 0
T9B48 1328:671.880 JLINK_WriteReg(R3, 0x00000000)
T9B48 1328:671.884 - 0.005ms returns 0
T9B48 1328:671.888 JLINK_WriteReg(R4, 0x00000000)
T9B48 1328:671.892 - 0.005ms returns 0
T9B48 1328:671.896 JLINK_WriteReg(R5, 0x00000000)
T9B48 1328:671.900 - 0.005ms returns 0
T9B48 1328:671.904 JLINK_WriteReg(R6, 0x00000000)
T9B48 1328:671.907 - 0.005ms returns 0
T9B48 1328:671.911 JLINK_WriteReg(R7, 0x00000000)
T9B48 1328:671.915 - 0.005ms returns 0
T9B48 1328:671.919 JLINK_WriteReg(R8, 0x00000000)
T9B48 1328:671.923 - 0.005ms returns 0
T9B48 1328:671.927 JLINK_WriteReg(R9, 0x2000034C)
T9B48 1328:671.931 - 0.005ms returns 0
T9B48 1328:671.935 JLINK_WriteReg(R10, 0x00000000)
T9B48 1328:671.939 - 0.005ms returns 0
T9B48 1328:671.944 JLINK_WriteReg(R11, 0x00000000)
T9B48 1328:671.947 - 0.005ms returns 0
T9B48 1328:671.951 JLINK_WriteReg(R12, 0x00000000)
T9B48 1328:671.955 - 0.005ms returns 0
T9B48 1328:671.959 JLINK_WriteReg(R13 (SP), 0x20001000)
T9B48 1328:671.963 - 0.005ms returns 0
T9B48 1328:671.967 JLINK_WriteReg(R14, 0x20000001)
T9B48 1328:671.971 - 0.005ms returns 0
T9B48 1328:671.977 JLINK_WriteReg(R15 (PC), 0x20000216)
T9B48 1328:671.981 - 0.005ms returns 0
T9B48 1328:671.985 JLINK_WriteReg(XPSR, 0x01000000)
T9B48 1328:671.992 - 0.010ms returns 0
T9B48 1328:671.998 JLINK_WriteReg(MSP, 0x20001000)
T9B48 1328:672.001 - 0.005ms returns 0
T9B48 1328:672.005 JLINK_WriteReg(PSP, 0x20001000)
T9B48 1328:672.009 - 0.005ms returns 0
T9B48 1328:672.013 JLINK_WriteReg(CFBP, 0x00000000)
T9B48 1328:672.017 - 0.005ms returns 0
T9B48 1328:672.021 JLINK_SetBPEx(Addr = 0x20000000, Type = 0xFFFFFFF2)
T9B48 1328:672.026 - 0.006ms returns 0x00000004
T9B48 1328:672.031 JLINK_Go()
T9B48 1328:672.039   CPU_ReadMem(4 bytes @ 0xE0001000)
T9B48 1328:674.808 - 2.797ms
T9B48 1328:674.833 JLINK_IsHalted()
T9B48 1328:677.310   CPU_ReadMem(2 bytes @ 0x20000000)
T9B48 1328:677.845 - 3.015ms returns TRUE
T9B48 1328:677.852 JLINK_ReadReg(R15 (PC))
T9B48 1328:677.857 - 0.006ms returns 0x20000000
T9B48 1328:677.861 JLINK_ClrBPEx(BPHandle = 0x00000004)
T9B48 1328:677.865 - 0.005ms returns 0x00
T9B48 1328:677.869 JLINK_ReadReg(R0)
T9B48 1328:677.873 - 0.005ms returns 0x00000001
T9B48 1328:677.877 JLINK_HasError()
T9B48 1328:677.882 JLINK_WriteReg(R0, 0x08001000)
T9B48 1328:677.886 - 0.005ms returns 0
T9B48 1328:677.890 JLINK_WriteReg(R1, 0x00001000)
T9B48 1328:677.893 - 0.005ms returns 0
T9B48 1328:677.897 JLINK_WriteReg(R2, 0x000000FF)
T9B48 1328:677.901 - 0.005ms returns 0
T9B48 1328:677.905 JLINK_WriteReg(R3, 0x00000000)
T9B48 1328:677.909 - 0.005ms returns 0
T9B48 1328:677.913 JLINK_WriteReg(R4, 0x00000000)
T9B48 1328:677.916 - 0.005ms returns 0
T9B48 1328:677.920 JLINK_WriteReg(R5, 0x00000000)
T9B48 1328:677.924 - 0.005ms returns 0
T9B48 1328:677.928 JLINK_WriteReg(R6, 0x00000000)
T9B48 1328:677.931 - 0.005ms returns 0
T9B48 1328:677.936 JLINK_WriteReg(R7, 0x00000000)
T9B48 1328:677.939 - 0.005ms returns 0
T9B48 1328:677.943 JLINK_WriteReg(R8, 0x00000000)
T9B48 1328:677.947 - 0.005ms returns 0
T9B48 1328:677.951 JLINK_WriteReg(R9, 0x2000034C)
T9B48 1328:677.954 - 0.005ms returns 0
T9B48 1328:677.958 JLINK_WriteReg(R10, 0x00000000)
T9B48 1328:677.962 - 0.005ms returns 0
T9B48 1328:677.966 JLINK_WriteReg(R11, 0x00000000)
T9B48 1328:677.969 - 0.005ms returns 0
T9B48 1328:677.973 JLINK_WriteReg(R12, 0x00000000)
T9B48 1328:677.976 - 0.005ms returns 0
T9B48 1328:677.981 JLINK_WriteReg(R13 (SP), 0x20001000)
T9B48 1328:677.984 - 0.005ms returns 0
T9B48 1328:677.988 JLINK_WriteReg(R14, 0x20000001)
T9B48 1328:677.992 - 0.005ms returns 0
T9B48 1328:677.996 JLINK_WriteReg(R15 (PC), 0x200001B2)
T9B48 1328:677.999 - 0.005ms returns 0
T9B48 1328:678.004 JLINK_WriteReg(XPSR, 0x01000000)
T9B48 1328:678.007 - 0.005ms returns 0
T9B48 1328:678.011 JLINK_WriteReg(MSP, 0x20001000)
T9B48 1328:678.015 - 0.005ms returns 0
T9B48 1328:678.019 JLINK_WriteReg(PSP, 0x20001000)
T9B48 1328:678.022 - 0.005ms returns 0
T9B48 1328:678.026 JLINK_WriteReg(CFBP, 0x00000000)
T9B48 1328:678.030 - 0.005ms returns 0
T9B48 1328:678.034 JLINK_SetBPEx(Addr = 0x20000000, Type = 0xFFFFFFF2)
T9B48 1328:678.038 - 0.005ms returns 0x00000005
T9B48 1328:678.042 JLINK_Go()
T9B48 1328:678.049   CPU_ReadMem(4 bytes @ 0xE0001000)
T9B48 1328:680.949 - 2.915ms
T9B48 1328:680.962 JLINK_IsHalted()
T9B48 1328:684.882 - 3.929ms returns FALSE
T9B48 1328:684.897 JLINK_HasError()
T9B48 1328:689.519 JLINK_IsHalted()
T9B48 1328:692.045   CPU_ReadMem(2 bytes @ 0x20000000)
T9B48 1328:692.529 - 3.019ms returns TRUE
T9B48 1328:692.589 JLINK_ReadReg(R15 (PC))
T9B48 1328:692.596 - 0.008ms returns 0x20000000
T9B48 1328:692.601 JLINK_ClrBPEx(BPHandle = 0x00000005)
T9B48 1328:692.605 - 0.005ms returns 0x00
T9B48 1328:692.609 JLINK_ReadReg(R0)
T9B48 1328:692.613 - 0.005ms returns 0x00000000
T9B48 1328:692.940 JLINK_HasError()
T9B48 1328:692.950 JLINK_WriteReg(R0, 0x08002000)
T9B48 1328:692.955 - 0.007ms returns 0
T9B48 1328:692.959 JLINK_WriteReg(R1, 0x00001000)
T9B48 1328:692.963 - 0.005ms returns 0
T9B48 1328:692.967 JLINK_WriteReg(R2, 0x000000FF)
T9B48 1328:692.971 - 0.005ms returns 0
T9B48 1328:692.975 JLINK_WriteReg(R3, 0x00000000)
T9B48 1328:692.978 - 0.005ms returns 0
T9B48 1328:692.982 JLINK_WriteReg(R4, 0x00000000)
T9B48 1328:692.985 - 0.009ms returns 0
T9B48 1328:692.995 JLINK_WriteReg(R5, 0x00000000)
T9B48 1328:692.999 - 0.005ms returns 0
T9B48 1328:693.002 JLINK_WriteReg(R6, 0x00000000)
T9B48 1328:693.006 - 0.005ms returns 0
T9B48 1328:693.010 JLINK_WriteReg(R7, 0x00000000)
T9B48 1328:693.014 - 0.005ms returns 0
T9B48 1328:693.018 JLINK_WriteReg(R8, 0x00000000)
T9B48 1328:693.021 - 0.005ms returns 0
T9B48 1328:693.025 JLINK_WriteReg(R9, 0x2000034C)
T9B48 1328:693.028 - 0.005ms returns 0
T9B48 1328:693.032 JLINK_WriteReg(R10, 0x00000000)
T9B48 1328:693.036 - 0.005ms returns 0
T9B48 1328:693.040 JLINK_WriteReg(R11, 0x00000000)
T9B48 1328:693.043 - 0.005ms returns 0
T9B48 1328:693.047 JLINK_WriteReg(R12, 0x00000000)
T9B48 1328:693.051 - 0.005ms returns 0
T9B48 1328:693.055 JLINK_WriteReg(R13 (SP), 0x20001000)
T9B48 1328:693.058 - 0.005ms returns 0
T9B48 1328:693.063 JLINK_WriteReg(R14, 0x20000001)
T9B48 1328:693.066 - 0.004ms returns 0
T9B48 1328:693.070 JLINK_WriteReg(R15 (PC), 0x20000216)
T9B48 1328:693.073 - 0.005ms returns 0
T9B48 1328:693.077 JLINK_WriteReg(XPSR, 0x01000000)
T9B48 1328:693.081 - 0.005ms returns 0
T9B48 1328:693.085 JLINK_WriteReg(MSP, 0x20001000)
T9B48 1328:693.088 - 0.005ms returns 0
T9B48 1328:693.092 JLINK_WriteReg(PSP, 0x20001000)
T9B48 1328:693.095 - 0.005ms returns 0
T9B48 1328:693.099 JLINK_WriteReg(CFBP, 0x00000000)
T9B48 1328:693.103 - 0.004ms returns 0
T9B48 1328:693.107 JLINK_SetBPEx(Addr = 0x20000000, Type = 0xFFFFFFF2)
T9B48 1328:693.111 - 0.006ms returns 0x00000006
T9B48 1328:693.115 JLINK_Go()
T9B48 1328:693.124   CPU_ReadMem(4 bytes @ 0xE0001000)
T9B48 1328:696.100 - 2.993ms
T9B48 1328:696.113 JLINK_IsHalted()
T9B48 1328:698.485   CPU_ReadMem(2 bytes @ 0x20000000)
T9B48 1328:698.953 - 2.848ms returns TRUE
T9B48 1328:698.966 JLINK_ReadReg(R15 (PC))
T9B48 1328:698.972 - 0.007ms returns 0x20000000
T9B48 1328:698.977 JLINK_ClrBPEx(BPHandle = 0x00000006)
T9B48 1328:698.981 - 0.006ms returns 0x00
T9B48 1328:698.985 JLINK_ReadReg(R0)
T9B48 1328:698.990 - 0.006ms returns 0x00000001
T9B48 1328:698.995 JLINK_HasError()
T9B48 1328:699.000 JLINK_WriteReg(R0, 0x08002000)
T9B48 1328:699.004 - 0.005ms returns 0
T9B48 1328:699.008 JLINK_WriteReg(R1, 0x00001000)
T9B48 1328:699.012 - 0.005ms returns 0
T9B48 1328:699.016 JLINK_WriteReg(R2, 0x000000FF)
T9B48 1328:699.019 - 0.005ms returns 0
T9B48 1328:699.023 JLINK_WriteReg(R3, 0x00000000)
T9B48 1328:699.027 - 0.005ms returns 0
T9B48 1328:699.031 JLINK_WriteReg(R4, 0x00000000)
T9B48 1328:699.034 - 0.005ms returns 0
T9B48 1328:699.038 JLINK_WriteReg(R5, 0x00000000)
T9B48 1328:699.042 - 0.005ms returns 0
T9B48 1328:699.046 JLINK_WriteReg(R6, 0x00000000)
T9B48 1328:699.049 - 0.005ms returns 0
T9B48 1328:699.053 JLINK_WriteReg(R7, 0x00000000)
T9B48 1328:699.057 - 0.005ms returns 0
T9B48 1328:699.061 JLINK_WriteReg(R8, 0x00000000)
T9B48 1328:699.064 - 0.005ms returns 0
T9B48 1328:699.068 JLINK_WriteReg(R9, 0x2000034C)
T9B48 1328:699.072 - 0.005ms returns 0
T9B48 1328:699.076 JLINK_WriteReg(R10, 0x00000000)
T9B48 1328:699.079 - 0.005ms returns 0
T9B48 1328:699.083 JLINK_WriteReg(R11, 0x00000000)
T9B48 1328:699.087 - 0.005ms returns 0
T9B48 1328:699.091 JLINK_WriteReg(R12, 0x00000000)
T9B48 1328:699.094 - 0.005ms returns 0
T9B48 1328:699.098 JLINK_WriteReg(R13 (SP), 0x20001000)
T9B48 1328:699.102 - 0.005ms returns 0
T9B48 1328:699.106 JLINK_WriteReg(R14, 0x20000001)
T9B48 1328:699.110 - 0.005ms returns 0
T9B48 1328:699.114 JLINK_WriteReg(R15 (PC), 0x200001B2)
T9B48 1328:699.117 - 0.005ms returns 0
T9B48 1328:699.121 JLINK_WriteReg(XPSR, 0x01000000)
T9B48 1328:699.125 - 0.005ms returns 0
T9B48 1328:699.129 JLINK_WriteReg(MSP, 0x20001000)
T9B48 1328:699.133 - 0.005ms returns 0
T9B48 1328:699.137 JLINK_WriteReg(PSP, 0x20001000)
T9B48 1328:699.140 - 0.005ms returns 0
T9B48 1328:699.144 JLINK_WriteReg(CFBP, 0x00000000)
T9B48 1328:699.148 - 0.005ms returns 0
T9B48 1328:699.152 JLINK_SetBPEx(Addr = 0x20000000, Type = 0xFFFFFFF2)
T9B48 1328:699.156 - 0.005ms returns 0x00000007
T9B48 1328:699.160 JLINK_Go()
T9B48 1328:699.201   CPU_ReadMem(4 bytes @ 0xE0001000)
T9B48 1328:702.054 - 2.900ms
T9B48 1328:702.064 JLINK_IsHalted()
T9B48 1328:706.021 - 3.974ms returns FALSE
T9B48 1328:706.045 JLINK_HasError()
T9B48 1328:707.569 JLINK_IsHalted()
T9B48 1328:710.058   CPU_ReadMem(2 bytes @ 0x20000000)
T9B48 1328:710.607 - 3.040ms returns TRUE
T9B48 1328:710.613 JLINK_ReadReg(R15 (PC))
T9B48 1328:710.619 - 0.007ms returns 0x20000000
T9B48 1328:710.623 JLINK_ClrBPEx(BPHandle = 0x00000007)
T9B48 1328:710.627 - 0.005ms returns 0x00
T9B48 1328:710.632 JLINK_ReadReg(R0)
T9B48 1328:710.635 - 0.005ms returns 0x00000000
T9B48 1328:711.033 JLINK_HasError()
T9B48 1328:711.043 JLINK_WriteReg(R0, 0x08003000)
T9B48 1328:711.049 - 0.006ms returns 0
T9B48 1328:711.053 JLINK_WriteReg(R1, 0x00001000)
T9B48 1328:711.057 - 0.005ms returns 0
T9B48 1328:711.061 JLINK_WriteReg(R2, 0x000000FF)
T9B48 1328:711.065 - 0.005ms returns 0
T9B48 1328:711.069 JLINK_WriteReg(R3, 0x00000000)
T9B48 1328:711.073 - 0.005ms returns 0
T9B48 1328:711.077 JLINK_WriteReg(R4, 0x00000000)
T9B48 1328:711.080 - 0.005ms returns 0
T9B48 1328:711.085 JLINK_WriteReg(R5, 0x00000000)
T9B48 1328:711.089 - 0.005ms returns 0
T9B48 1328:711.093 JLINK_WriteReg(R6, 0x00000000)
T9B48 1328:711.097 - 0.005ms returns 0
T9B48 1328:711.101 JLINK_WriteReg(R7, 0x00000000)
T9B48 1328:711.105 - 0.005ms returns 0
T9B48 1328:711.109 JLINK_WriteReg(R8, 0x00000000)
T9B48 1328:711.113 - 0.005ms returns 0
T9B48 1328:711.117 JLINK_WriteReg(R9, 0x2000034C)
T9B48 1328:711.121 - 0.005ms returns 0
T9B48 1328:711.125 JLINK_WriteReg(R10, 0x00000000)
T9B48 1328:711.129 - 0.005ms returns 0
T9B48 1328:711.133 JLINK_WriteReg(R11, 0x00000000)
T9B48 1328:711.137 - 0.006ms returns 0
T9B48 1328:711.141 JLINK_WriteReg(R12, 0x00000000)
T9B48 1328:711.145 - 0.005ms returns 0
T9B48 1328:711.150 JLINK_WriteReg(R13 (SP), 0x20001000)
T9B48 1328:711.154 - 0.006ms returns 0
T9B48 1328:711.158 JLINK_WriteReg(R14, 0x20000001)
T9B48 1328:711.162 - 0.005ms returns 0
T9B48 1328:711.166 JLINK_WriteReg(R15 (PC), 0x20000216)
T9B48 1328:711.170 - 0.005ms returns 0
T9B48 1328:711.174 JLINK_WriteReg(XPSR, 0x01000000)
T9B48 1328:711.177 - 0.005ms returns 0
T9B48 1328:711.182 JLINK_WriteReg(MSP, 0x20001000)
T9B48 1328:711.185 - 0.005ms returns 0
T9B48 1328:711.190 JLINK_WriteReg(PSP, 0x20001000)
T9B48 1328:711.193 - 0.005ms returns 0
T9B48 1328:711.198 JLINK_WriteReg(CFBP, 0x00000000)
T9B48 1328:711.202 - 0.005ms returns 0
T9B48 1328:711.206 JLINK_SetBPEx(Addr = 0x20000000, Type = 0xFFFFFFF2)
T9B48 1328:711.211 - 0.006ms returns 0x00000008
T9B48 1328:711.215 JLINK_Go()
T9B48 1328:711.227   CPU_ReadMem(4 bytes @ 0xE0001000)
T9B48 1328:713.967 - 2.758ms
T9B48 1328:713.978 JLINK_IsHalted()
T9B48 1328:716.412   CPU_ReadMem(2 bytes @ 0x20000000)
T9B48 1328:716.971 - 2.995ms returns TRUE
T9B48 1328:716.977 JLINK_ReadReg(R15 (PC))
T9B48 1328:716.982 - 0.006ms returns 0x20000000
T9B48 1328:716.987 JLINK_ClrBPEx(BPHandle = 0x00000008)
T9B48 1328:716.991 - 0.005ms returns 0x00
T9B48 1328:716.995 JLINK_ReadReg(R0)
T9B48 1328:716.999 - 0.005ms returns 0x00000001
T9B48 1328:717.003 JLINK_HasError()
T9B48 1328:717.008 JLINK_WriteReg(R0, 0x08003000)
T9B48 1328:717.012 - 0.005ms returns 0
T9B48 1328:717.016 JLINK_WriteReg(R1, 0x00001000)
T9B48 1328:717.019 - 0.005ms returns 0
T9B48 1328:717.023 JLINK_WriteReg(R2, 0x000000FF)
T9B48 1328:717.027 - 0.005ms returns 0
T9B48 1328:717.031 JLINK_WriteReg(R3, 0x00000000)
T9B48 1328:717.035 - 0.005ms returns 0
T9B48 1328:717.039 JLINK_WriteReg(R4, 0x00000000)
T9B48 1328:717.042 - 0.005ms returns 0
T9B48 1328:717.046 JLINK_WriteReg(R5, 0x00000000)
T9B48 1328:717.050 - 0.005ms returns 0
T9B48 1328:717.054 JLINK_WriteReg(R6, 0x00000000)
T9B48 1328:717.057 - 0.005ms returns 0
T9B48 1328:717.061 JLINK_WriteReg(R7, 0x00000000)
T9B48 1328:717.065 - 0.005ms returns 0
T9B48 1328:717.069 JLINK_WriteReg(R8, 0x00000000)
T9B48 1328:717.072 - 0.005ms returns 0
T9B48 1328:717.076 JLINK_WriteReg(R9, 0x2000034C)
T9B48 1328:717.080 - 0.005ms returns 0
T9B48 1328:717.087 JLINK_WriteReg(R10, 0x00000000)
T9B48 1328:717.092 - 0.006ms returns 0
T9B48 1328:717.096 JLINK_WriteReg(R11, 0x00000000)
T9B48 1328:717.099 - 0.005ms returns 0
T9B48 1328:717.103 JLINK_WriteReg(R12, 0x00000000)
T9B48 1328:717.109 - 0.008ms returns 0
T9B48 1328:717.114 JLINK_WriteReg(R13 (SP), 0x20001000)
T9B48 1328:717.118 - 0.005ms returns 0
T9B48 1328:717.122 JLINK_WriteReg(R14, 0x20000001)
T9B48 1328:717.125 - 0.005ms returns 0
T9B48 1328:717.129 JLINK_WriteReg(R15 (PC), 0x200001B2)
T9B48 1328:717.133 - 0.005ms returns 0
T9B48 1328:717.137 JLINK_WriteReg(XPSR, 0x01000000)
T9B48 1328:717.140 - 0.005ms returns 0
T9B48 1328:717.144 JLINK_WriteReg(MSP, 0x20001000)
T9B48 1328:717.148 - 0.005ms returns 0
T9B48 1328:717.152 JLINK_WriteReg(PSP, 0x20001000)
T9B48 1328:717.155 - 0.005ms returns 0
T9B48 1328:717.159 JLINK_WriteReg(CFBP, 0x00000000)
T9B48 1328:717.162 - 0.004ms returns 0
T9B48 1328:717.166 JLINK_SetBPEx(Addr = 0x20000000, Type = 0xFFFFFFF2)
T9B48 1328:717.170 - 0.005ms returns 0x00000009
T9B48 1328:717.174 JLINK_Go()
T9B48 1328:717.181   CPU_ReadMem(4 bytes @ 0xE0001000)
T9B48 1328:720.114 - 2.942ms
T9B48 1328:720.127 JLINK_IsHalted()
T9B48 1328:724.123 - 4.004ms returns FALSE
T9B48 1328:724.142 JLINK_HasError()
T9B48 1328:725.947 JLINK_IsHalted()
T9B48 1328:728.506   CPU_ReadMem(2 bytes @ 0x20000000)
T9B48 1328:729.024 - 3.081ms returns TRUE
T9B48 1328:729.035 JLINK_ReadReg(R15 (PC))
T9B48 1328:729.042 - 0.010ms returns 0x20000000
T9B48 1328:729.049 JLINK_ClrBPEx(BPHandle = 0x00000009)
T9B48 1328:729.055 - 0.008ms returns 0x00
T9B48 1328:729.061 JLINK_ReadReg(R0)
T9B48 1328:729.067 - 0.007ms returns 0x00000000
T9B48 1328:729.473 JLINK_HasError()
T9B48 1328:729.488 JLINK_WriteReg(R0, 0x00000001)
T9B48 1328:729.498 - 0.013ms returns 0
T9B48 1328:729.505 JLINK_WriteReg(R1, 0x00001000)
T9B48 1328:729.511 - 0.008ms returns 0
T9B48 1328:729.518 JLINK_WriteReg(R2, 0x000000FF)
T9B48 1328:729.524 - 0.008ms returns 0
T9B48 1328:729.531 JLINK_WriteReg(R3, 0x00000000)
T9B48 1328:729.537 - 0.008ms returns 0
T9B48 1328:729.543 JLINK_WriteReg(R4, 0x00000000)
T9B48 1328:729.549 - 0.008ms returns 0
T9B48 1328:729.555 JLINK_WriteReg(R5, 0x00000000)
T9B48 1328:729.561 - 0.008ms returns 0
T9B48 1328:729.568 JLINK_WriteReg(R6, 0x00000000)
T9B48 1328:729.573 - 0.008ms returns 0
T9B48 1328:729.580 JLINK_WriteReg(R7, 0x00000000)
T9B48 1328:729.585 - 0.008ms returns 0
T9B48 1328:729.592 JLINK_WriteReg(R8, 0x00000000)
T9B48 1328:729.598 - 0.008ms returns 0
T9B48 1328:729.605 JLINK_WriteReg(R9, 0x2000034C)
T9B48 1328:729.611 - 0.008ms returns 0
T9B48 1328:729.617 JLINK_WriteReg(R10, 0x00000000)
T9B48 1328:729.623 - 0.008ms returns 0
T9B48 1328:729.630 JLINK_WriteReg(R11, 0x00000000)
T9B48 1328:729.635 - 0.008ms returns 0
T9B48 1328:729.642 JLINK_WriteReg(R12, 0x00000000)
T9B48 1328:729.647 - 0.008ms returns 0
T9B48 1328:729.654 JLINK_WriteReg(R13 (SP), 0x20001000)
T9B48 1328:729.661 - 0.009ms returns 0
T9B48 1328:729.667 JLINK_WriteReg(R14, 0x20000001)
T9B48 1328:729.673 - 0.008ms returns 0
T9B48 1328:729.680 JLINK_WriteReg(R15 (PC), 0x20000116)
T9B48 1328:729.686 - 0.008ms returns 0
T9B48 1328:729.692 JLINK_WriteReg(XPSR, 0x01000000)
T9B48 1328:729.698 - 0.008ms returns 0
T9B48 1328:729.704 JLINK_WriteReg(MSP, 0x20001000)
T9B48 1328:729.710 - 0.008ms returns 0
T9B48 1328:729.717 JLINK_WriteReg(PSP, 0x20001000)
T9B48 1328:729.722 - 0.011ms returns 0
T9B48 1328:729.732 JLINK_WriteReg(CFBP, 0x00000000)
T9B48 1328:729.738 - 0.008ms returns 0
T9B48 1328:729.745 JLINK_SetBPEx(Addr = 0x20000000, Type = 0xFFFFFFF2)
T9B48 1328:729.752 - 0.010ms returns 0x0000000A
T9B48 1328:729.759 JLINK_Go()
T9B48 1328:729.772   CPU_ReadMem(4 bytes @ 0xE0001000)
T9B48 1328:732.848 - 3.098ms
T9B48 1328:732.868 JLINK_IsHalted()
T9B48 1328:735.299   CPU_ReadMem(2 bytes @ 0x20000000)
T9B48 1328:735.867 - 3.004ms returns TRUE
T9B48 1328:735.878 JLINK_ReadReg(R15 (PC))
T9B48 1328:735.887 - 0.011ms returns 0x20000000
T9B48 1328:735.894 JLINK_ClrBPEx(BPHandle = 0x0000000A)
T9B48 1328:735.907 - 0.019ms returns 0x00
T9B48 1328:735.918 JLINK_ReadReg(R0)
T9B48 1328:735.924 - 0.009ms returns 0x00000000
T9B48 1328:794.159 JLINK_WriteMem(0x20000000, 0x358 Bytes, ...)
T9B48 1328:794.178   Data:  00 BE 0A E0 0D 78 2D 06 68 40 08 24 40 00 00 D3 ...
T9B48 1328:794.198   CPU_WriteMem(856 bytes @ 0x20000000)
T9B48 1328:797.738 - 3.590ms returns 0x358
T9B48 1328:797.780 JLINK_HasError()
T9B48 1328:797.787 JLINK_WriteReg(R0, 0x08000000)
T9B48 1328:797.793 - 0.008ms returns 0
T9B48 1328:797.798 JLINK_WriteReg(R1, 0x00B71B00)
T9B48 1328:797.801 - 0.005ms returns 0
T9B48 1328:797.806 JLINK_WriteReg(R2, 0x00000002)
T9B48 1328:797.809 - 0.005ms returns 0
T9B48 1328:797.813 JLINK_WriteReg(R3, 0x00000000)
T9B48 1328:797.817 - 0.005ms returns 0
T9B48 1328:797.821 JLINK_WriteReg(R4, 0x00000000)
T9B48 1328:797.824 - 0.005ms returns 0
T9B48 1328:797.828 JLINK_WriteReg(R5, 0x00000000)
T9B48 1328:797.832 - 0.005ms returns 0
T9B48 1328:797.837 JLINK_WriteReg(R6, 0x00000000)
T9B48 1328:797.840 - 0.005ms returns 0
T9B48 1328:797.844 JLINK_WriteReg(R7, 0x00000000)
T9B48 1328:797.848 - 0.005ms returns 0
T9B48 1328:797.852 JLINK_WriteReg(R8, 0x00000000)
T9B48 1328:797.855 - 0.005ms returns 0
T9B48 1328:797.860 JLINK_WriteReg(R9, 0x2000034C)
T9B48 1328:797.863 - 0.005ms returns 0
T9B48 1328:797.868 JLINK_WriteReg(R10, 0x00000000)
T9B48 1328:797.871 - 0.005ms returns 0
T9B48 1328:797.875 JLINK_WriteReg(R11, 0x00000000)
T9B48 1328:797.879 - 0.005ms returns 0
T9B48 1328:797.883 JLINK_WriteReg(R12, 0x00000000)
T9B48 1328:797.886 - 0.005ms returns 0
T9B48 1328:797.890 JLINK_WriteReg(R13 (SP), 0x20001000)
T9B48 1328:797.895 - 0.006ms returns 0
T9B48 1328:797.899 JLINK_WriteReg(R14, 0x20000001)
T9B48 1328:797.902 - 0.005ms returns 0
T9B48 1328:797.906 JLINK_WriteReg(R15 (PC), 0x200000BC)
T9B48 1328:797.910 - 0.005ms returns 0
T9B48 1328:797.914 JLINK_WriteReg(XPSR, 0x01000000)
T9B48 1328:797.918 - 0.005ms returns 0
T9B48 1328:797.922 JLINK_WriteReg(MSP, 0x20001000)
T9B48 1328:797.925 - 0.005ms returns 0
T9B48 1328:797.929 JLINK_WriteReg(PSP, 0x20001000)
T9B48 1328:797.933 - 0.005ms returns 0
T9B48 1328:797.937 JLINK_WriteReg(CFBP, 0x00000000)
T9B48 1328:797.940 - 0.005ms returns 0
T9B48 1328:797.945 JLINK_SetBPEx(Addr = 0x20000000, Type = 0xFFFFFFF2)
T9B48 1328:797.952   CPU_ReadMem(2 bytes @ 0x20000000)
T9B48 1328:798.486 - 0.544ms returns 0x0000000B
T9B48 1328:798.493 JLINK_Go()
T9B48 1328:798.498   CPU_WriteMem(2 bytes @ 0x20000000)
T9B48 1328:799.022   CPU_ReadMem(4 bytes @ 0xE0001000)
T9B48 1328:801.950 - 3.460ms
T9B48 1328:801.964 JLINK_IsHalted()
T9B48 1328:804.411   CPU_ReadMem(2 bytes @ 0x20000000)
T9B48 1328:804.916 - 2.962ms returns TRUE
T9B48 1328:804.938 JLINK_ReadReg(R15 (PC))
T9B48 1328:804.944 - 0.007ms returns 0x20000000
T9B48 1328:804.948 JLINK_ClrBPEx(BPHandle = 0x0000000B)
T9B48 1328:804.952 - 0.005ms returns 0x00
T9B48 1328:804.957 JLINK_ReadReg(R0)
T9B48 1328:804.961 - 0.005ms returns 0x00000000
T9B48 1328:805.213 JLINK_WriteMem(0x20000358, 0x80 Bytes, ...)
T9B48 1328:805.222   Data:  98 06 00 20 D5 00 00 08 DD 00 00 08 DF 00 00 08 ...
T9B48 1328:805.235   CPU_WriteMem(128 bytes @ 0x20000358)
T9B48 1328:806.379 - 1.173ms returns 0x80
T9B48 1328:806.392 JLINK_HasError()
T9B48 1328:806.398 JLINK_WriteReg(R0, 0x08000000)
T9B48 1328:806.404 - 0.007ms returns 0
T9B48 1328:806.408 JLINK_WriteReg(R1, 0x00000080)
T9B48 1328:806.412 - 0.005ms returns 0
T9B48 1328:806.416 JLINK_WriteReg(R2, 0x20000358)
T9B48 1328:806.419 - 0.005ms returns 0
T9B48 1328:806.424 JLINK_WriteReg(R3, 0x00000000)
T9B48 1328:806.429 - 0.006ms returns 0
T9B48 1328:806.433 JLINK_WriteReg(R4, 0x00000000)
T9B48 1328:806.436 - 0.005ms returns 0
T9B48 1328:806.440 JLINK_WriteReg(R5, 0x00000000)
T9B48 1328:806.444 - 0.005ms returns 0
T9B48 1328:806.447 JLINK_WriteReg(R6, 0x00000000)
T9B48 1328:806.451 - 0.005ms returns 0
T9B48 1328:806.455 JLINK_WriteReg(R7, 0x00000000)
T9B48 1328:806.458 - 0.005ms returns 0
T9B48 1328:806.462 JLINK_WriteReg(R8, 0x00000000)
T9B48 1328:806.470 - 0.011ms returns 0
T9B48 1328:806.477 JLINK_WriteReg(R9, 0x2000034C)
T9B48 1328:806.480 - 0.005ms returns 0
T9B48 1328:806.484 JLINK_WriteReg(R10, 0x00000000)
T9B48 1328:806.488 - 0.005ms returns 0
T9B48 1328:806.492 JLINK_WriteReg(R11, 0x00000000)
T9B48 1328:806.495 - 0.005ms returns 0
T9B48 1328:806.499 JLINK_WriteReg(R12, 0x00000000)
T9B48 1328:806.502 - 0.005ms returns 0
T9B48 1328:806.507 JLINK_WriteReg(R13 (SP), 0x20001000)
T9B48 1328:806.511 - 0.006ms returns 0
T9B48 1328:806.515 JLINK_WriteReg(R14, 0x20000001)
T9B48 1328:806.518 - 0.005ms returns 0
T9B48 1328:806.522 JLINK_WriteReg(R15 (PC), 0x2000021C)
T9B48 1328:806.526 - 0.005ms returns 0
T9B48 1328:806.530 JLINK_WriteReg(XPSR, 0x01000000)
T9B48 1328:806.534 - 0.005ms returns 0
T9B48 1328:806.538 JLINK_WriteReg(MSP, 0x20001000)
T9B48 1328:806.541 - 0.005ms returns 0
T9B48 1328:806.545 JLINK_WriteReg(PSP, 0x20001000)
T9B48 1328:806.549 - 0.005ms returns 0
T9B48 1328:806.553 JLINK_WriteReg(CFBP, 0x00000000)
T9B48 1328:806.556 - 0.005ms returns 0
T9B48 1328:806.560 JLINK_SetBPEx(Addr = 0x20000000, Type = 0xFFFFFFF2)
T9B48 1328:806.565 - 0.006ms returns 0x0000000C
T9B48 1328:806.569 JLINK_Go()
T9B48 1328:806.577   CPU_ReadMem(4 bytes @ 0xE0001000)
T9B48 1328:809.621 - 3.062ms
T9B48 1328:809.636 JLINK_IsHalted()
T9B48 1328:810.798 - 1.165ms returns FALSE
T9B48 1328:810.804 JLINK_HasError()
T9B48 1328:815.080 JLINK_IsHalted()
T9B48 1328:817.458   CPU_ReadMem(2 bytes @ 0x20000000)
T9B48 1328:818.031 - 2.952ms returns TRUE
T9B48 1328:818.037 JLINK_ReadReg(R15 (PC))
T9B48 1328:818.041 - 0.006ms returns 0x20000000
T9B48 1328:818.045 JLINK_ClrBPEx(BPHandle = 0x0000000C)
T9B48 1328:818.049 - 0.005ms returns 0x00
T9B48 1328:818.053 JLINK_ReadReg(R0)
T9B48 1328:818.057 - 0.005ms returns 0x00000000
T9B48 1328:818.359 JLINK_WriteMem(0x20000358, 0x80 Bytes, ...)
T9B48 1328:818.367   Data:  00 00 00 00 00 00 00 00 00 00 00 00 E7 00 00 08 ...
T9B48 1328:818.377   CPU_WriteMem(128 bytes @ 0x20000358)
T9B48 1328:819.648 - 1.291ms returns 0x80
T9B48 1328:819.654 JLINK_HasError()
T9B48 1328:819.659 JLINK_WriteReg(R0, 0x08000080)
T9B48 1328:819.663 - 0.006ms returns 0
T9B48 1328:819.667 JLINK_WriteReg(R1, 0x00000080)
T9B48 1328:819.671 - 0.005ms returns 0
T9B48 1328:819.675 JLINK_WriteReg(R2, 0x20000358)
T9B48 1328:819.679 - 0.005ms returns 0
T9B48 1328:819.683 JLINK_WriteReg(R3, 0x00000000)
T9B48 1328:819.686 - 0.005ms returns 0
T9B48 1328:819.691 JLINK_WriteReg(R4, 0x00000000)
T9B48 1328:819.694 - 0.005ms returns 0
T9B48 1328:819.698 JLINK_WriteReg(R5, 0x00000000)
T9B48 1328:819.702 - 0.005ms returns 0
T9B48 1328:819.706 JLINK_WriteReg(R6, 0x00000000)
T9B48 1328:819.709 - 0.005ms returns 0
T9B48 1328:819.713 JLINK_WriteReg(R7, 0x00000000)
T9B48 1328:819.717 - 0.005ms returns 0
T9B48 1328:819.721 JLINK_WriteReg(R8, 0x00000000)
T9B48 1328:819.725 - 0.005ms returns 0
T9B48 1328:819.729 JLINK_WriteReg(R9, 0x2000034C)
T9B48 1328:819.732 - 0.005ms returns 0
T9B48 1328:819.736 JLINK_WriteReg(R10, 0x00000000)
T9B48 1328:819.740 - 0.005ms returns 0
T9B48 1328:819.744 JLINK_WriteReg(R11, 0x00000000)
T9B48 1328:819.747 - 0.005ms returns 0
T9B48 1328:819.751 JLINK_WriteReg(R12, 0x00000000)
T9B48 1328:819.755 - 0.005ms returns 0
T9B48 1328:819.759 JLINK_WriteReg(R13 (SP), 0x20001000)
T9B48 1328:819.763 - 0.005ms returns 0
T9B48 1328:819.767 JLINK_WriteReg(R14, 0x20000001)
T9B48 1328:819.770 - 0.005ms returns 0
T9B48 1328:819.775 JLINK_WriteReg(R15 (PC), 0x2000021C)
T9B48 1328:819.778 - 0.005ms returns 0
T9B48 1328:819.782 JLINK_WriteReg(XPSR, 0x01000000)
T9B48 1328:819.786 - 0.005ms returns 0
T9B48 1328:819.790 JLINK_WriteReg(MSP, 0x20001000)
T9B48 1328:819.799 - 0.010ms returns 0
T9B48 1328:819.804 JLINK_WriteReg(PSP, 0x20001000)
T9B48 1328:819.808 - 0.005ms returns 0
T9B48 1328:819.812 JLINK_WriteReg(CFBP, 0x00000000)
T9B48 1328:819.815 - 0.005ms returns 0
T9B48 1328:819.820 JLINK_SetBPEx(Addr = 0x20000000, Type = 0xFFFFFFF2)
T9B48 1328:819.824 - 0.006ms returns 0x0000000D
T9B48 1328:819.828 JLINK_Go()
T9B48 1328:819.840   CPU_ReadMem(4 bytes @ 0xE0001000)
T9B48 1328:822.704 - 2.887ms
T9B48 1328:822.722 JLINK_IsHalted()
T9B48 1328:823.868 - 1.152ms returns FALSE
T9B48 1328:823.879 JLINK_HasError()
T9B48 1328:826.282 JLINK_IsHalted()
T9B48 1328:828.926   CPU_ReadMem(2 bytes @ 0x20000000)
T9B48 1328:829.492 - 3.213ms returns TRUE
T9B48 1328:829.498 JLINK_ReadReg(R15 (PC))
T9B48 1328:829.504 - 0.007ms returns 0x20000000
T9B48 1328:829.508 JLINK_ClrBPEx(BPHandle = 0x0000000D)
T9B48 1328:829.512 - 0.005ms returns 0x00
T9B48 1328:829.516 JLINK_ReadReg(R0)
T9B48 1328:829.521 - 0.005ms returns 0x00000000
T9B48 1328:829.861 JLINK_WriteMem(0x20000358, 0x80 Bytes, ...)
T9B48 1328:829.871   Data:  D5 40 9D 42 05 D3 1D 46 95 40 49 1B 25 46 95 40 ...
T9B48 1328:829.882   CPU_WriteMem(128 bytes @ 0x20000358)
T9B48 1328:831.153 - 1.300ms returns 0x80
T9B48 1328:831.166 JLINK_HasError()
T9B48 1328:831.171 JLINK_WriteReg(R0, 0x08000100)
T9B48 1328:831.176 - 0.006ms returns 0
T9B48 1328:831.180 JLINK_WriteReg(R1, 0x00000080)
T9B48 1328:831.183 - 0.005ms returns 0
T9B48 1328:831.187 JLINK_WriteReg(R2, 0x20000358)
T9B48 1328:831.191 - 0.005ms returns 0
T9B48 1328:831.194 JLINK_WriteReg(R3, 0x00000000)
T9B48 1328:831.198 - 0.005ms returns 0
T9B48 1328:831.202 JLINK_WriteReg(R4, 0x00000000)
T9B48 1328:831.205 - 0.005ms returns 0
T9B48 1328:831.209 JLINK_WriteReg(R5, 0x00000000)
T9B48 1328:831.213 - 0.005ms returns 0
T9B48 1328:831.217 JLINK_WriteReg(R6, 0x00000000)
T9B48 1328:831.220 - 0.005ms returns 0
T9B48 1328:831.224 JLINK_WriteReg(R7, 0x00000000)
T9B48 1328:831.227 - 0.005ms returns 0
T9B48 1328:831.231 JLINK_WriteReg(R8, 0x00000000)
T9B48 1328:831.235 - 0.005ms returns 0
T9B48 1328:831.238 JLINK_WriteReg(R9, 0x2000034C)
T9B48 1328:831.242 - 0.005ms returns 0
T9B48 1328:831.246 JLINK_WriteReg(R10, 0x00000000)
